
T3FC0 000:064 SEGGER J-Link V6.12a Log File (0001ms, 0027ms total)
T3FC0 000:064 DLL Compiled: Dec  2 2016 16:44:26 (0001ms, 0027ms total)
T3FC0 000:064 Logging started @ 2017-07-18 16:49 (0001ms, 0027ms total)
T3FC0 000:065 JLINK_SetWarnOutHandler(...) (0000ms, 0027ms total)
T3FC0 000:065 JLINK_OpenEx(...)
Firmware: J-Link OB-STM32F072-CortexM compiled Mar  8 2020 11:15:54
Hardware: V1.00
S/N: 799190947
Feature(s): GDB, RDI, FlashBP, FlashDL, JFlash, RDDIWEBSRV Webserver running on local port 19080 (0018ms, 0045ms total)
T3FC0 000:065   returns O.K. (0018ms, 0045ms total)
T3FC0 000:083 JLINK_SetErrorOutHandler(...) (0000ms, 0045ms total)
T3FC0 000:083 JLINK_ExecCommand("ProjectFile = "E:\syncthing\ElectricalEngineering\STM32Code\STM32F0_Keyboard\MDK-ARM\JLinkSettings.ini"", ...). C:\Program Files (x86)\SEGGER\JLink_V612a\JLinkDevices.xml evaluated successfully.  returns 0x00 (0108ms, 0153ms total)
T3FC0 000:197 JLINK_ExecCommand("Device = STM32F072C8", ...). Device "STM32F072C8" selected.  returns 0x00 (0002ms, 0155ms total)
T3FC0 000:199 JLINK_ExecCommand("DisableConnectionTimeout", ...).   returns 0x01 (0001ms, 0156ms total)
T3FC0 000:200 JLINK_GetHardwareVersion()  returns 0x2710 (0000ms, 0156ms total)
T3FC0 000:200 JLINK_GetDLLVersion()  returns 61201 (0000ms, 0156ms total)
T3FC0 000:200 JLINK_GetFirmwareString(...) (0000ms, 0156ms total)
T3FC0 000:204 JLINK_GetDLLVersion()  returns 61201 (0000ms, 0156ms total)
T3FC0 000:204 JLINK_GetCompileDateTime() (0000ms, 0156ms total)
T3FC0 000:207 JLINK_GetFirmwareString(...) (0000ms, 0156ms total)
T3FC0 000:209 JLINK_GetHardwareVersion()  returns 0x2710 (0000ms, 0156ms total)
T3FC0 000:215 JLINK_TIF_Select(JLINKARM_TIF_SWD)  returns 0x00 (0001ms, 0157ms total)
T3FC0 000:216 JLINK_SetSpeed(5000) (0000ms, 0157ms total)
T3FC0 000:216 JLINK_GetId() >0x108 TIF>Found SWD-DP with ID 0x0BB11477 >0x0D TIF> >0x28 TIF> >0x0D TIF> >0x28 TIF> >0x0D TIF> >0x28 TIF> >0x0D TIF> >0x28 TIF> >0x0D TIF> >0x21 TIF> >0x0D TIF> >0x28 TIF> >0x0D TIF> >0x28 TIF> >0x0D TIF> >0x28 TIF> >0x0D TIF> >0x21 TIF> >0x0D TIF> >0x21 TIF> >0x0D TIF> >0x28 TIF> >0x0D TIF> >0x21 TIF> >0x0D TIF> >0x21 TIF> >0x0D TIF> >0x28 TIF> >0x0D TIF> >0x21 TIF> >0x0D TIF> >0x21 TIF> >0x0D TIF> >0x28 TIF> >0x0D TIF> >0x28 TIF> >0x0D TIF> >0x28 TIF> >0x0D TIF>
 >0x21 TIF> >0x0D TIF> >0x21 TIF> >0x0D TIF> >0x28 TIF> >0x0D TIF> >0x28 TIF> >0x0D TIF> >0x28 TIF> >0x0D TIF> >0x21 TIF> >0x0D TIF> >0x21 TIF> >0x0D TIF> >0x28 TIF> >0x0D TIF> >0x21 TIF> >0x0D TIF> >0x21 TIF> >0x0D TIF> >0x28 TIF> >0x0D TIF> >0x21 TIF> >0x0D TIF> >0x21 TIF> >0x0D TIF> >0x28 TIF> >0x0D TIF> >0x21 TIF> >0x0D TIF> >0x21 TIF> >0x0D TIF> >0x28 TIF> >0x0D TIF> >0x21 TIF> >0x0D TIF> >0x21 TIF> >0x0D TIF> >0x28 TIF> >0x0D TIF> >0x21 TIF> >0x0D TIF> >0x21 TIF> >0x108 TIF>
Found SWD-DP with ID 0x0BB11477 >0x0D TIF> >0x28 TIF> >0x0D TIF> >0x28 TIF> >0x0D TIF> >0x28 TIF> >0x0D TIF> >0x28 TIF> >0x0D TIF> >0x21 TIF> >0x0D TIF> >0x28 TIF> >0x0D TIF> >0x28 TIF> >0x0D TIF> >0x21 TIF> >0x0D TIF> >0x21 TIF> >0x0D TIF> >0x21 TIF>AP-IDR: 0x04770021, Type: AHB-AP >0x0D TIF> >0x28 TIF> >0x0D TIF> >0x28 TIF> >0x0D TIF> >0x28 TIF> >0x0D TIF> >0x21 TIF> >0x0D TIF> >0x21 TIF> >0x0D TIF> >0x28 TIF> >0x0D TIF> >0x21 TIF> >0x0D TIF> >0x21 TIF>Found Cortex-M0 r0p0, Little endian.
 -- CPU_ReadMem(4 bytes @ 0xE000EDF0) -- CPU_ReadMem(4 bytes @ 0xE0002000)FPUnit: 4 code (BP) slots and 0 literal slots -- CPU_ReadMem(4 bytes @ 0xE000EDFC) -- CPU_ReadMem(4 bytes @ 0xE0001000) -- CPU_WriteMem(4 bytes @ 0xE0001000)CoreSight components:ROMTbl 0 @ E00FF000 -- CPU_ReadMem(16 bytes @ 0xE00FF000) -- CPU_ReadMem(16 bytes @ 0xE000EFF0) -- CPU_ReadMem(16 bytes @ 0xE000EFE0)ROMTbl 0 [0]: FFF0F000, CID: B105E00D, PID: 000BB008 SCS -- CPU_ReadMem(16 bytes @ 0xE0001FF0)
 -- CPU_ReadMem(16 bytes @ 0xE0001FE0)ROMTbl 0 [1]: FFF02000, CID: B105E00D, PID: 000BB00A DWT -- CPU_ReadMem(16 bytes @ 0xE0002FF0) -- CPU_ReadMem(16 bytes @ 0xE0002FE0)ROMTbl 0 [2]: FFF03000, CID: B105E00D, PID: 000BB00B FPB -- CPU is running -- CPU_WriteMem(4 bytes @ 0xE000EDF0) -- CPU is running -- CPU_WriteMem(4 bytes @ 0xE000EDFC) >0x35 TIF> -- CPU is running -- CPU_WriteMem(4 bytes @ 0xE000ED0C) -- CPU is running -- CPU_ReadMem(4 bytes @ 0xE000EDF0) -- CPU is running
 -- CPU_ReadMem(4 bytes @ 0xE000EDF0) -- CPU is running -- CPU_WriteMem(4 bytes @ 0xE000EDF0) -- CPU is running -- CPU_WriteMem(4 bytes @ 0xE000EDFC) -- CPU is running -- CPU_ReadMem(4 bytes @ 0xE000EDF0) -- CPU_WriteMem(4 bytes @ 0xE0002000) -- CPU_ReadMem(4 bytes @ 0xE000EDFC) -- CPU_ReadMem(4 bytes @ 0xE0001000) -- CPU_WriteMem(4 bytes @ 0xE0001000) -- CPU_WriteMem(16384 bytes @ 0x20000000) >0x0D TIF> >0x21 TIF>  returns 0x0BB11477 (0231ms, 0388ms total)
T3FC0 000:447 JLINK_GetDLLVersion()  returns 61201 (0000ms, 0388ms total)
T3FC0 000:447 JLINK_CORE_GetFound()  returns 0x60000FF (0000ms, 0388ms total)
T3FC0 000:447 JLINK_GetDebugInfo(0x100) -- Value=0xE00FF000  returns 0x00 (0000ms, 0388ms total)
T3FC0 000:461 JLINK_ReadMem (0xE00FF000, 0x0020 Bytes, ...) -- CPU_ReadMem(32 bytes @ 0xE00FF000) - Data: 03 F0 F0 FF 03 20 F0 FF 03 30 F0 FF 00 00 00 00 ...  returns 0x00 (0000ms, 0388ms total)
T3FC0 000:461 JLINK_ReadMem (0xE000EFF0, 0x0010 Bytes, ...) -- CPU_ReadMem(16 bytes @ 0xE000EFF0) - Data: 0D 00 00 00 E0 00 00 00 05 00 00 00 B1 00 00 00  returns 0x00 (0001ms, 0389ms total)
T3FC0 000:462 JLINK_ReadMem (0xE000EFD0, 0x0020 Bytes, ...) -- CPU_ReadMem(32 bytes @ 0xE000EFD0) - Data: 04 00 00 00 00 00 00 00 00 00 00 00 00 00 00 00 ...  returns 0x00 (0001ms, 0390ms total)
T3FC0 000:463 JLINK_ReadMem (0xE0001FF0, 0x0010 Bytes, ...) -- CPU_ReadMem(16 bytes @ 0xE0001FF0) - Data: 0D 00 00 00 E0 00 00 00 05 00 00 00 B1 00 00 00  returns 0x00 (0000ms, 0390ms total)
T3FC0 000:463 JLINK_ReadMem (0xE0001FD0, 0x0020 Bytes, ...) -- CPU_ReadMem(32 bytes @ 0xE0001FD0) - Data: 04 00 00 00 00 00 00 00 00 00 00 00 00 00 00 00 ...  returns 0x00 (0001ms, 0391ms total)
T3FC0 000:464 JLINK_ReadMem (0xE0002FF0, 0x0010 Bytes, ...) -- CPU_ReadMem(16 bytes @ 0xE0002FF0) - Data: 0D 00 00 00 E0 00 00 00 05 00 00 00 B1 00 00 00  returns 0x00 (0001ms, 0392ms total)
T3FC0 000:465 JLINK_ReadMem (0xE0002FD0, 0x0020 Bytes, ...) -- CPU_ReadMem(32 bytes @ 0xE0002FD0) - Data: 04 00 00 00 00 00 00 00 00 00 00 00 00 00 00 00 ...  returns 0x00 (0000ms, 0392ms total)
T3FC0 000:465 JLINK_ReadMemU32(0xE000ED00, 0x0001 Items, ...) -- CPU_ReadMem(4 bytes @ 0xE000ED00) - Data: 00 C2 0C 41  returns 0x01 (0001ms, 0393ms total)
T3FC0 000:466 JLINK_SetResetType(JLINKARM_CM3_RESET_TYPE_NORMAL)  returns JLINKARM_CM3_RESET_TYPE_NORMAL (0000ms, 0393ms total)
T3FC0 000:466 JLINK_Reset() -- CPU_ReadMem(4 bytes @ 0x20000000) -- CPU_WriteMem(4 bytes @ 0x20000000) -- CPU_WriteMem(4 bytes @ 0xE000EDF0) -- CPU_WriteMem(4 bytes @ 0xE000EDFC) >0x35 TIF> -- CPU_WriteMem(4 bytes @ 0xE000ED0C) -- CPU_ReadMem(4 bytes @ 0xE000EDF0) -- CPU_ReadMem(4 bytes @ 0xE000EDF0) -- CPU_WriteMem(4 bytes @ 0xE000EDF0) -- CPU_WriteMem(4 bytes @ 0xE000EDFC) -- CPU is running -- CPU_ReadMem(4 bytes @ 0xE000EDF0) -- CPU_WriteMem(4 bytes @ 0xE0002000) -- CPU_ReadMem(4 bytes @ 0xE000EDFC)
 -- CPU_ReadMem(4 bytes @ 0xE0001000) -- CPU_WriteMem(4 bytes @ 0xE0001000) (0019ms, 0412ms total)
T3FC0 000:486 JLINK_Halt()  returns 0x00 (0000ms, 0412ms total)
T3FC0 000:486 JLINK_IsHalted()  returns TRUE (0000ms, 0412ms total)
T3FC0 000:486 JLINK_ReadMemU32(0xE000EDF0, 0x0001 Items, ...) -- CPU_ReadMem(4 bytes @ 0xE000EDF0) - Data: 03 00 03 00  returns 0x01 (0000ms, 0412ms total)
T3FC0 000:486 JLINK_WriteU32(0xE000EDF0, 0xA05F0003) -- CPU_WriteMem(4 bytes @ 0xE000EDF0)  returns 0x00 (0001ms, 0413ms total)
T3FC0 000:487 JLINK_WriteU32(0xE000EDFC, 0x01000000) -- CPU_WriteMem(4 bytes @ 0xE000EDFC)  returns 0x00 (0000ms, 0413ms total)
T3FC0 000:501 JLINK_GetHWStatus(...)  returns 0x00 (0000ms, 0413ms total)
T3FC0 000:520 JLINK_GetNumBPUnits(Type = 0xFFFFFF00)  returns 0x04 (0000ms, 0413ms total)
T3FC0 000:520 JLINK_GetNumBPUnits(Type = 0xF0)  returns 0x2000 (0000ms, 0413ms total)
T3FC0 000:520 JLINK_GetNumWPUnits()  returns 0x02 (0000ms, 0413ms total)
T3FC0 000:527 JLINK_GetSpeed()  returns 0x7D0 (0000ms, 0413ms total)
T3FC0 000:531 JLINK_ReadMemU32(0xE000E004, 0x0001 Items, ...) -- CPU_ReadMem(4 bytes @ 0xE000E004) - Data: 00 00 00 00  returns 0x01 (0000ms, 0413ms total)
T3FC0 000:531 JLINK_Halt()  returns 0x00 (0000ms, 0413ms total)
T3FC0 000:531 JLINK_IsHalted()  returns TRUE (0000ms, 0413ms total)
T3FC0 000:533 JLINK_WriteMem(0x20000000, 0x0170 Bytes, ...) - Data: 00 BE 0A E0 0D 78 2D 06 68 40 08 24 40 00 00 D3 ... -- CPU_WriteMem(368 bytes @ 0x20000000)  returns 0x170 (0005ms, 0418ms total)
T3FC0 000:538 JLINK_WriteReg(R0, 0x08000000)  returns 0x00 (0000ms, 0418ms total)
T3FC0 000:538 JLINK_WriteReg(R1, 0x02DC6C00)  returns 0x00 (0000ms, 0418ms total)
T3FC0 000:538 JLINK_WriteReg(R2, 0x00000001)  returns 0x00 (0000ms, 0418ms total)
T3FC0 000:538 JLINK_WriteReg(R3, 0x00000000)  returns 0x00 (0000ms, 0418ms total)
T3FC0 000:538 JLINK_WriteReg(R4, 0x00000000)  returns 0x00 (0000ms, 0418ms total)
T3FC0 000:538 JLINK_WriteReg(R5, 0x00000000)  returns 0x00 (0000ms, 0418ms total)
T3FC0 000:538 JLINK_WriteReg(R6, 0x00000000)  returns 0x00 (0000ms, 0418ms total)
T3FC0 000:538 JLINK_WriteReg(R7, 0x00000000)  returns 0x00 (0000ms, 0418ms total)
T3FC0 000:538 JLINK_WriteReg(R8, 0x00000000)  returns 0x00 (0000ms, 0418ms total)
T3FC0 000:538 JLINK_WriteReg(R9, 0x2000016C)  returns 0x00 (0000ms, 0418ms total)
T3FC0 000:538 JLINK_WriteReg(R10, 0x00000000)  returns 0x00 (0000ms, 0418ms total)
T3FC0 000:538 JLINK_WriteReg(R11, 0x00000000)  returns 0x00 (0000ms, 0418ms total)
T3FC0 000:538 JLINK_WriteReg(R12, 0x00000000)  returns 0x00 (0000ms, 0418ms total)
T3FC0 000:538 JLINK_WriteReg(R13 (SP), 0x20001000)  returns 0x00 (0000ms, 0418ms total)
T3FC0 000:538 JLINK_WriteReg(R14, 0x20000001)  returns 0x00 (0000ms, 0418ms total)
T3FC0 000:538 JLINK_WriteReg(R15 (PC), 0x20000038)  returns 0x00 (0000ms, 0418ms total)
T3FC0 000:538 JLINK_WriteReg(XPSR, 0x01000000)  returns 0x00 (0000ms, 0418ms total)
T3FC0 000:538 JLINK_WriteReg(MSP, 0x20001000)  returns 0x00 (0000ms, 0418ms total)
T3FC0 000:538 JLINK_WriteReg(PSP, 0x20001000)  returns 0x00 (0000ms, 0418ms total)
T3FC0 000:538 JLINK_WriteReg(CFBP, 0x00000000)  returns 0x00 (0000ms, 0418ms total)
T3FC0 000:538 JLINK_SetBPEx(Addr = 0x20000000, Type = 0xFFFFFFF2) -- CPU_ReadMem(2 bytes @ 0x20000000)  returns 0x00000001 (0001ms, 0419ms total)
T3FC0 000:539 JLINK_Go() -- CPU_WriteMem(2 bytes @ 0x20000000) -- CPU_ReadMem(4 bytes @ 0xE0001000) -- CPU_WriteMem(4 bytes @ 0xE0001000) -- CPU_WriteMem(4 bytes @ 0xE0002008) -- CPU_WriteMem(4 bytes @ 0xE000200C) -- CPU_WriteMem(4 bytes @ 0xE0002010) -- CPU_WriteMem(4 bytes @ 0xE0002014) -- CPU_WriteMem(4 bytes @ 0xE0001004) (0007ms, 0426ms total)
T3FC0 000:546 JLINK_IsHalted() -- CPU_ReadMem(2 bytes @ 0x20000000)  returns TRUE (0004ms, 0430ms total)
T3FC0 000:550 JLINK_ReadReg(R15 (PC))  returns 0x20000000 (0000ms, 0426ms total)
T3FC0 000:550 JLINK_ClrBPEx(BPHandle = 0x00000001)  returns 0x00 (0000ms, 0426ms total)
T3FC0 000:550 JLINK_ReadReg(R0)  returns 0x00000000 (0000ms, 0426ms total)
T3FC0 000:551 JLINK_WriteReg(R0, 0x08000000)  returns 0x00 (0000ms, 0426ms total)
T3FC0 000:551 JLINK_WriteReg(R1, 0x00000400)  returns 0x00 (0001ms, 0427ms total)
T3FC0 000:552 JLINK_WriteReg(R2, 0x000000FF)  returns 0x00 (0000ms, 0427ms total)
T3FC0 000:552 JLINK_WriteReg(R3, 0x00000000)  returns 0x00 (0000ms, 0427ms total)
T3FC0 000:552 JLINK_WriteReg(R4, 0x00000000)  returns 0x00 (0000ms, 0427ms total)
T3FC0 000:552 JLINK_WriteReg(R5, 0x00000000)  returns 0x00 (0000ms, 0427ms total)
T3FC0 000:552 JLINK_WriteReg(R6, 0x00000000)  returns 0x00 (0000ms, 0427ms total)
T3FC0 000:552 JLINK_WriteReg(R7, 0x00000000)  returns 0x00 (0000ms, 0427ms total)
T3FC0 000:552 JLINK_WriteReg(R8, 0x00000000)  returns 0x00 (0000ms, 0427ms total)
T3FC0 000:552 JLINK_WriteReg(R9, 0x2000016C)  returns 0x00 (0000ms, 0427ms total)
T3FC0 000:552 JLINK_WriteReg(R10, 0x00000000)  returns 0x00 (0000ms, 0427ms total)
T3FC0 000:552 JLINK_WriteReg(R11, 0x00000000)  returns 0x00 (0000ms, 0427ms total)
T3FC0 000:552 JLINK_WriteReg(R12, 0x00000000)  returns 0x00 (0000ms, 0427ms total)
T3FC0 000:552 JLINK_WriteReg(R13 (SP), 0x20001000)  returns 0x00 (0000ms, 0427ms total)
T3FC0 000:552 JLINK_WriteReg(R14, 0x20000001)  returns 0x00 (0000ms, 0427ms total)
T3FC0 000:552 JLINK_WriteReg(R15 (PC), 0x20000020)  returns 0x00 (0000ms, 0427ms total)
T3FC0 000:552 JLINK_WriteReg(XPSR, 0x01000000)  returns 0x00 (0000ms, 0427ms total)
T3FC0 000:552 JLINK_WriteReg(MSP, 0x20001000)  returns 0x00 (0000ms, 0427ms total)
T3FC0 000:552 JLINK_WriteReg(PSP, 0x20001000)  returns 0x00 (0000ms, 0427ms total)
T3FC0 000:552 JLINK_WriteReg(CFBP, 0x00000000)  returns 0x00 (0000ms, 0427ms total)
T3FC0 000:552 JLINK_SetBPEx(Addr = 0x20000000, Type = 0xFFFFFFF2)  returns 0x00000002 (0000ms, 0427ms total)
T3FC0 000:552 JLINK_Go() -- CPU_ReadMem(4 bytes @ 0xE0001000) -- CPU_WriteMem(4 bytes @ 0xE0001000) (0002ms, 0429ms total)
T3FC0 000:554 JLINK_IsHalted() -- CPU_ReadMem(2 bytes @ 0x20000000)  returns TRUE (0005ms, 0434ms total)
T3FC0 000:559 JLINK_ReadReg(R15 (PC))  returns 0x20000000 (0000ms, 0429ms total)
T3FC0 000:559 JLINK_ClrBPEx(BPHandle = 0x00000002)  returns 0x00 (0000ms, 0429ms total)
T3FC0 000:559 JLINK_ReadReg(R0)  returns 0x00000001 (0000ms, 0429ms total)
T3FC0 000:559 JLINK_WriteReg(R0, 0x08000000)  returns 0x00 (0000ms, 0429ms total)
T3FC0 000:559 JLINK_WriteReg(R1, 0x00000400)  returns 0x00 (0000ms, 0429ms total)
T3FC0 000:559 JLINK_WriteReg(R2, 0x000000FF)  returns 0x00 (0000ms, 0429ms total)
T3FC0 000:559 JLINK_WriteReg(R3, 0x00000000)  returns 0x00 (0000ms, 0429ms total)
T3FC0 000:559 JLINK_WriteReg(R4, 0x00000000)  returns 0x00 (0000ms, 0429ms total)
T3FC0 000:559 JLINK_WriteReg(R5, 0x00000000)  returns 0x00 (0000ms, 0429ms total)
T3FC0 000:559 JLINK_WriteReg(R6, 0x00000000)  returns 0x00 (0000ms, 0429ms total)
T3FC0 000:559 JLINK_WriteReg(R7, 0x00000000)  returns 0x00 (0000ms, 0429ms total)
T3FC0 000:559 JLINK_WriteReg(R8, 0x00000000)  returns 0x00 (0000ms, 0429ms total)
T3FC0 000:559 JLINK_WriteReg(R9, 0x2000016C)  returns 0x00 (0000ms, 0429ms total)
T3FC0 000:559 JLINK_WriteReg(R10, 0x00000000)  returns 0x00 (0000ms, 0429ms total)
T3FC0 000:559 JLINK_WriteReg(R11, 0x00000000)  returns 0x00 (0000ms, 0429ms total)
T3FC0 000:559 JLINK_WriteReg(R12, 0x00000000)  returns 0x00 (0000ms, 0429ms total)
T3FC0 000:559 JLINK_WriteReg(R13 (SP), 0x20001000)  returns 0x00 (0000ms, 0429ms total)
T3FC0 000:559 JLINK_WriteReg(R14, 0x20000001)  returns 0x00 (0000ms, 0429ms total)
T3FC0 000:559 JLINK_WriteReg(R15 (PC), 0x200000B8)  returns 0x00 (0000ms, 0429ms total)
T3FC0 000:559 JLINK_WriteReg(XPSR, 0x01000000)  returns 0x00 (0000ms, 0429ms total)
T3FC0 000:559 JLINK_WriteReg(MSP, 0x20001000)  returns 0x00 (0000ms, 0429ms total)
T3FC0 000:559 JLINK_WriteReg(PSP, 0x20001000)  returns 0x00 (0000ms, 0429ms total)
T3FC0 000:559 JLINK_WriteReg(CFBP, 0x00000000)  returns 0x00 (0000ms, 0429ms total)
T3FC0 000:559 JLINK_SetBPEx(Addr = 0x20000000, Type = 0xFFFFFFF2)  returns 0x00000003 (0000ms, 0429ms total)
T3FC0 000:559 JLINK_Go() -- CPU_ReadMem(4 bytes @ 0xE0001000) -- CPU_WriteMem(4 bytes @ 0xE0001000) (0003ms, 0432ms total)
T3FC0 000:562 JLINK_IsHalted()  returns FALSE (0000ms, 0432ms total)
T3FC0 000:643 JLINK_IsHalted() -- CPU_ReadMem(2 bytes @ 0x20000000)  returns TRUE (0004ms, 0436ms total)
T3FC0 000:647 JLINK_ReadReg(R15 (PC))  returns 0x20000000 (0000ms, 0432ms total)
T3FC0 000:647 JLINK_ClrBPEx(BPHandle = 0x00000003)  returns 0x00 (0000ms, 0432ms total)
T3FC0 000:647 JLINK_ReadReg(R0)  returns 0x00000000 (0000ms, 0432ms total)
T3FC0 000:648 JLINK_WriteReg(R0, 0x08000400)  returns 0x00 (0000ms, 0432ms total)
T3FC0 000:648 JLINK_WriteReg(R1, 0x00000400)  returns 0x00 (0000ms, 0432ms total)
T3FC0 000:648 JLINK_WriteReg(R2, 0x000000FF)  returns 0x00 (0000ms, 0432ms total)
T3FC0 000:648 JLINK_WriteReg(R3, 0x00000000)  returns 0x00 (0000ms, 0432ms total)
T3FC0 000:648 JLINK_WriteReg(R4, 0x00000000)  returns 0x00 (0000ms, 0432ms total)
T3FC0 000:648 JLINK_WriteReg(R5, 0x00000000)  returns 0x00 (0000ms, 0432ms total)
T3FC0 000:648 JLINK_WriteReg(R6, 0x00000000)  returns 0x00 (0000ms, 0432ms total)
T3FC0 000:648 JLINK_WriteReg(R7, 0x00000000)  returns 0x00 (0000ms, 0432ms total)
T3FC0 000:648 JLINK_WriteReg(R8, 0x00000000)  returns 0x00 (0000ms, 0432ms total)
T3FC0 000:648 JLINK_WriteReg(R9, 0x2000016C)  returns 0x00 (0000ms, 0432ms total)
T3FC0 000:648 JLINK_WriteReg(R10, 0x00000000)  returns 0x00 (0000ms, 0432ms total)
T3FC0 000:648 JLINK_WriteReg(R11, 0x00000000)  returns 0x00 (0000ms, 0432ms total)
T3FC0 000:648 JLINK_WriteReg(R12, 0x00000000)  returns 0x00 (0000ms, 0432ms total)
T3FC0 000:648 JLINK_WriteReg(R13 (SP), 0x20001000)  returns 0x00 (0000ms, 0432ms total)
T3FC0 000:648 JLINK_WriteReg(R14, 0x20000001)  returns 0x00 (0000ms, 0432ms total)
T3FC0 000:648 JLINK_WriteReg(R15 (PC), 0x20000020)  returns 0x00 (0000ms, 0432ms total)
T3FC0 000:648 JLINK_WriteReg(XPSR, 0x01000000)  returns 0x00 (0000ms, 0432ms total)
T3FC0 000:648 JLINK_WriteReg(MSP, 0x20001000)  returns 0x00 (0000ms, 0432ms total)
T3FC0 000:648 JLINK_WriteReg(PSP, 0x20001000)  returns 0x00 (0000ms, 0432ms total)
T3FC0 000:648 JLINK_WriteReg(CFBP, 0x00000000)  returns 0x00 (0000ms, 0432ms total)
T3FC0 000:648 JLINK_SetBPEx(Addr = 0x20000000, Type = 0xFFFFFFF2)  returns 0x00000004 (0000ms, 0432ms total)
T3FC0 000:648 JLINK_Go() -- CPU_ReadMem(4 bytes @ 0xE0001000) -- CPU_WriteMem(4 bytes @ 0xE0001000) (0003ms, 0435ms total)
T3FC0 000:651 JLINK_IsHalted()  returns FALSE (0000ms, 0435ms total)
T3FC0 000:653 JLINK_IsHalted() -- CPU_ReadMem(2 bytes @ 0x20000000)  returns TRUE (0004ms, 0439ms total)
T3FC0 000:657 JLINK_ReadReg(R15 (PC))  returns 0x20000000 (0000ms, 0435ms total)
T3FC0 000:657 JLINK_ClrBPEx(BPHandle = 0x00000004)  returns 0x00 (0000ms, 0435ms total)
T3FC0 000:657 JLINK_ReadReg(R0)  returns 0x00000000 (0000ms, 0435ms total)
T3FC0 000:657 JLINK_WriteReg(R0, 0x08000800)  returns 0x00 (0000ms, 0435ms total)
T3FC0 000:657 JLINK_WriteReg(R1, 0x00000400)  returns 0x00 (0000ms, 0435ms total)
T3FC0 000:657 JLINK_WriteReg(R2, 0x000000FF)  returns 0x00 (0001ms, 0436ms total)
T3FC0 000:658 JLINK_WriteReg(R3, 0x00000000)  returns 0x00 (0000ms, 0436ms total)
T3FC0 000:658 JLINK_WriteReg(R4, 0x00000000)  returns 0x00 (0000ms, 0436ms total)
T3FC0 000:658 JLINK_WriteReg(R5, 0x00000000)  returns 0x00 (0000ms, 0436ms total)
T3FC0 000:658 JLINK_WriteReg(R6, 0x00000000)  returns 0x00 (0000ms, 0436ms total)
T3FC0 000:658 JLINK_WriteReg(R7, 0x00000000)  returns 0x00 (0000ms, 0436ms total)
T3FC0 000:658 JLINK_WriteReg(R8, 0x00000000)  returns 0x00 (0000ms, 0436ms total)
T3FC0 000:658 JLINK_WriteReg(R9, 0x2000016C)  returns 0x00 (0000ms, 0436ms total)
T3FC0 000:658 JLINK_WriteReg(R10, 0x00000000)  returns 0x00 (0000ms, 0436ms total)
T3FC0 000:658 JLINK_WriteReg(R11, 0x00000000)  returns 0x00 (0000ms, 0436ms total)
T3FC0 000:658 JLINK_WriteReg(R12, 0x00000000)  returns 0x00 (0000ms, 0436ms total)
T3FC0 000:658 JLINK_WriteReg(R13 (SP), 0x20001000)  returns 0x00 (0000ms, 0436ms total)
T3FC0 000:658 JLINK_WriteReg(R14, 0x20000001)  returns 0x00 (0000ms, 0436ms total)
T3FC0 000:658 JLINK_WriteReg(R15 (PC), 0x20000020)  returns 0x00 (0000ms, 0436ms total)
T3FC0 000:658 JLINK_WriteReg(XPSR, 0x01000000)  returns 0x00 (0000ms, 0436ms total)
T3FC0 000:658 JLINK_WriteReg(MSP, 0x20001000)  returns 0x00 (0000ms, 0436ms total)
T3FC0 000:658 JLINK_WriteReg(PSP, 0x20001000)  returns 0x00 (0000ms, 0436ms total)
T3FC0 000:658 JLINK_WriteReg(CFBP, 0x00000000)  returns 0x00 (0000ms, 0436ms total)
T3FC0 000:658 JLINK_SetBPEx(Addr = 0x20000000, Type = 0xFFFFFFF2)  returns 0x00000005 (0000ms, 0436ms total)
T3FC0 000:658 JLINK_Go() -- CPU_ReadMem(4 bytes @ 0xE0001000) -- CPU_WriteMem(4 bytes @ 0xE0001000) (0002ms, 0438ms total)
T3FC0 000:660 JLINK_IsHalted() -- CPU_ReadMem(2 bytes @ 0x20000000)  returns TRUE (0005ms, 0443ms total)
T3FC0 000:665 JLINK_ReadReg(R15 (PC))  returns 0x20000000 (0000ms, 0438ms total)
T3FC0 000:665 JLINK_ClrBPEx(BPHandle = 0x00000005)  returns 0x00 (0000ms, 0438ms total)
T3FC0 000:665 JLINK_ReadReg(R0)  returns 0x00000001 (0000ms, 0438ms total)
T3FC0 000:665 JLINK_WriteReg(R0, 0x08000800)  returns 0x00 (0000ms, 0438ms total)
T3FC0 000:665 JLINK_WriteReg(R1, 0x00000400)  returns 0x00 (0000ms, 0438ms total)
T3FC0 000:665 JLINK_WriteReg(R2, 0x000000FF)  returns 0x00 (0000ms, 0438ms total)
T3FC0 000:665 JLINK_WriteReg(R3, 0x00000000)  returns 0x00 (0000ms, 0438ms total)
T3FC0 000:665 JLINK_WriteReg(R4, 0x00000000)  returns 0x00 (0000ms, 0438ms total)
T3FC0 000:665 JLINK_WriteReg(R5, 0x00000000)  returns 0x00 (0000ms, 0438ms total)
T3FC0 000:665 JLINK_WriteReg(R6, 0x00000000)  returns 0x00 (0000ms, 0438ms total)
T3FC0 000:665 JLINK_WriteReg(R7, 0x00000000)  returns 0x00 (0000ms, 0438ms total)
T3FC0 000:665 JLINK_WriteReg(R8, 0x00000000)  returns 0x00 (0000ms, 0438ms total)
T3FC0 000:665 JLINK_WriteReg(R9, 0x2000016C)  returns 0x00 (0000ms, 0438ms total)
T3FC0 000:665 JLINK_WriteReg(R10, 0x00000000)  returns 0x00 (0000ms, 0438ms total)
T3FC0 000:665 JLINK_WriteReg(R11, 0x00000000)  returns 0x00 (0000ms, 0438ms total)
T3FC0 000:665 JLINK_WriteReg(R12, 0x00000000)  returns 0x00 (0000ms, 0438ms total)
T3FC0 000:665 JLINK_WriteReg(R13 (SP), 0x20001000)  returns 0x00 (0000ms, 0438ms total)
T3FC0 000:665 JLINK_WriteReg(R14, 0x20000001)  returns 0x00 (0000ms, 0438ms total)
T3FC0 000:665 JLINK_WriteReg(R15 (PC), 0x200000B8)  returns 0x00 (0000ms, 0438ms total)
T3FC0 000:665 JLINK_WriteReg(XPSR, 0x01000000)  returns 0x00 (0000ms, 0438ms total)
T3FC0 000:665 JLINK_WriteReg(MSP, 0x20001000)  returns 0x00 (0000ms, 0438ms total)
T3FC0 000:665 JLINK_WriteReg(PSP, 0x20001000)  returns 0x00 (0000ms, 0438ms total)
T3FC0 000:665 JLINK_WriteReg(CFBP, 0x00000000)  returns 0x00 (0000ms, 0438ms total)
T3FC0 000:665 JLINK_SetBPEx(Addr = 0x20000000, Type = 0xFFFFFFF2)  returns 0x00000006 (0000ms, 0438ms total)
T3FC0 000:665 JLINK_Go() -- CPU_ReadMem(4 bytes @ 0xE0001000) -- CPU_WriteMem(4 bytes @ 0xE0001000) (0003ms, 0441ms total)
T3FC0 000:668 JLINK_IsHalted()  returns FALSE (0000ms, 0441ms total)
T3FC0 000:669 JLINK_IsHalted()  returns FALSE (0000ms, 0441ms total)
T3FC0 000:671 JLINK_IsHalted()  returns FALSE (0000ms, 0441ms total)
T3FC0 000:672 JLINK_IsHalted()  returns FALSE (0000ms, 0441ms total)
T3FC0 000:674 JLINK_IsHalted()  returns FALSE (0000ms, 0441ms total)
T3FC0 000:676 JLINK_IsHalted()  returns FALSE (0000ms, 0441ms total)
T3FC0 000:681 JLINK_IsHalted()  returns FALSE (0000ms, 0441ms total)
T3FC0 000:682 JLINK_IsHalted()  returns FALSE (0000ms, 0441ms total)
T3FC0 000:684 JLINK_IsHalted()  returns FALSE (0000ms, 0441ms total)
T3FC0 000:685 JLINK_IsHalted()  returns FALSE (0000ms, 0441ms total)
T3FC0 000:687 JLINK_IsHalted()  returns FALSE (0000ms, 0441ms total)
T3FC0 000:689 JLINK_IsHalted()  returns FALSE (0000ms, 0441ms total)
T3FC0 000:691 JLINK_IsHalted() -- CPU_ReadMem(2 bytes @ 0x20000000)  returns TRUE (0004ms, 0445ms total)
T3FC0 000:695 JLINK_ReadReg(R15 (PC))  returns 0x20000000 (0000ms, 0441ms total)
T3FC0 000:695 JLINK_ClrBPEx(BPHandle = 0x00000006)  returns 0x00 (0000ms, 0441ms total)
T3FC0 000:695 JLINK_ReadReg(R0)  returns 0x00000000 (0000ms, 0441ms total)
T3FC0 000:696 JLINK_WriteReg(R0, 0x08000C00)  returns 0x00 (0000ms, 0441ms total)
T3FC0 000:696 JLINK_WriteReg(R1, 0x00000400)  returns 0x00 (0000ms, 0441ms total)
T3FC0 000:696 JLINK_WriteReg(R2, 0x000000FF)  returns 0x00 (0000ms, 0441ms total)
T3FC0 000:696 JLINK_WriteReg(R3, 0x00000000)  returns 0x00 (0000ms, 0441ms total)
T3FC0 000:696 JLINK_WriteReg(R4, 0x00000000)  returns 0x00 (0000ms, 0441ms total)
T3FC0 000:696 JLINK_WriteReg(R5, 0x00000000)  returns 0x00 (0000ms, 0441ms total)
T3FC0 000:696 JLINK_WriteReg(R6, 0x00000000)  returns 0x00 (0000ms, 0441ms total)
T3FC0 000:696 JLINK_WriteReg(R7, 0x00000000)  returns 0x00 (0000ms, 0441ms total)
T3FC0 000:696 JLINK_WriteReg(R8, 0x00000000)  returns 0x00 (0000ms, 0441ms total)
T3FC0 000:696 JLINK_WriteReg(R9, 0x2000016C)  returns 0x00 (0000ms, 0441ms total)
T3FC0 000:696 JLINK_WriteReg(R10, 0x00000000)  returns 0x00 (0000ms, 0441ms total)
T3FC0 000:696 JLINK_WriteReg(R11, 0x00000000)  returns 0x00 (0000ms, 0441ms total)
T3FC0 000:696 JLINK_WriteReg(R12, 0x00000000)  returns 0x00 (0000ms, 0441ms total)
T3FC0 000:696 JLINK_WriteReg(R13 (SP), 0x20001000)  returns 0x00 (0000ms, 0441ms total)
T3FC0 000:696 JLINK_WriteReg(R14, 0x20000001)  returns 0x00 (0000ms, 0441ms total)
T3FC0 000:696 JLINK_WriteReg(R15 (PC), 0x20000020)  returns 0x00 (0000ms, 0441ms total)
T3FC0 000:696 JLINK_WriteReg(XPSR, 0x01000000)  returns 0x00 (0000ms, 0441ms total)
T3FC0 000:696 JLINK_WriteReg(MSP, 0x20001000)  returns 0x00 (0000ms, 0441ms total)
T3FC0 000:696 JLINK_WriteReg(PSP, 0x20001000)  returns 0x00 (0000ms, 0441ms total)
T3FC0 000:696 JLINK_WriteReg(CFBP, 0x00000000)  returns 0x00 (0000ms, 0441ms total)
T3FC0 000:696 JLINK_SetBPEx(Addr = 0x20000000, Type = 0xFFFFFFF2)  returns 0x00000007 (0000ms, 0441ms total)
T3FC0 000:696 JLINK_Go() -- CPU_ReadMem(4 bytes @ 0xE0001000) -- CPU_WriteMem(4 bytes @ 0xE0001000) (0003ms, 0444ms total)
T3FC0 000:699 JLINK_IsHalted()  returns FALSE (0000ms, 0444ms total)
T3FC0 000:703 JLINK_IsHalted() -- CPU_ReadMem(2 bytes @ 0x20000000)  returns TRUE (0004ms, 0448ms total)
T3FC0 000:707 JLINK_ReadReg(R15 (PC))  returns 0x20000000 (0000ms, 0444ms total)
T3FC0 000:707 JLINK_ClrBPEx(BPHandle = 0x00000007)  returns 0x00 (0000ms, 0444ms total)
T3FC0 000:707 JLINK_ReadReg(R0)  returns 0x00000000 (0000ms, 0444ms total)
T3FC0 000:709 JLINK_WriteReg(R0, 0x08001000)  returns 0x00 (0000ms, 0444ms total)
T3FC0 000:709 JLINK_WriteReg(R1, 0x00000400)  returns 0x00 (0000ms, 0444ms total)
T3FC0 000:709 JLINK_WriteReg(R2, 0x000000FF)  returns 0x00 (0000ms, 0444ms total)
T3FC0 000:709 JLINK_WriteReg(R3, 0x00000000)  returns 0x00 (0000ms, 0444ms total)
T3FC0 000:709 JLINK_WriteReg(R4, 0x00000000)  returns 0x00 (0000ms, 0444ms total)
T3FC0 000:709 JLINK_WriteReg(R5, 0x00000000)  returns 0x00 (0000ms, 0444ms total)
T3FC0 000:709 JLINK_WriteReg(R6, 0x00000000)  returns 0x00 (0000ms, 0444ms total)
T3FC0 000:709 JLINK_WriteReg(R7, 0x00000000)  returns 0x00 (0000ms, 0444ms total)
T3FC0 000:709 JLINK_WriteReg(R8, 0x00000000)  returns 0x00 (0000ms, 0444ms total)
T3FC0 000:709 JLINK_WriteReg(R9, 0x2000016C)  returns 0x00 (0000ms, 0444ms total)
T3FC0 000:709 JLINK_WriteReg(R10, 0x00000000)  returns 0x00 (0000ms, 0444ms total)
T3FC0 000:709 JLINK_WriteReg(R11, 0x00000000)  returns 0x00 (0000ms, 0444ms total)
T3FC0 000:709 JLINK_WriteReg(R12, 0x00000000)  returns 0x00 (0000ms, 0444ms total)
T3FC0 000:709 JLINK_WriteReg(R13 (SP), 0x20001000)  returns 0x00 (0000ms, 0444ms total)
T3FC0 000:709 JLINK_WriteReg(R14, 0x20000001)  returns 0x00 (0000ms, 0444ms total)
T3FC0 000:709 JLINK_WriteReg(R15 (PC), 0x20000020)  returns 0x00 (0000ms, 0444ms total)
T3FC0 000:709 JLINK_WriteReg(XPSR, 0x01000000)  returns 0x00 (0000ms, 0444ms total)
T3FC0 000:709 JLINK_WriteReg(MSP, 0x20001000)  returns 0x00 (0000ms, 0444ms total)
T3FC0 000:709 JLINK_WriteReg(PSP, 0x20001000)  returns 0x00 (0000ms, 0444ms total)
T3FC0 000:709 JLINK_WriteReg(CFBP, 0x00000000)  returns 0x00 (0000ms, 0444ms total)
T3FC0 000:709 JLINK_SetBPEx(Addr = 0x20000000, Type = 0xFFFFFFF2)  returns 0x00000008 (0000ms, 0444ms total)
T3FC0 000:709 JLINK_Go() -- CPU_ReadMem(4 bytes @ 0xE0001000) -- CPU_WriteMem(4 bytes @ 0xE0001000) (0003ms, 0447ms total)
T3FC0 000:712 JLINK_IsHalted() -- CPU_ReadMem(2 bytes @ 0x20000000)  returns TRUE (0004ms, 0451ms total)
T3FC0 000:716 JLINK_ReadReg(R15 (PC))  returns 0x20000000 (0000ms, 0447ms total)
T3FC0 000:716 JLINK_ClrBPEx(BPHandle = 0x00000008)  returns 0x00 (0000ms, 0447ms total)
T3FC0 000:716 JLINK_ReadReg(R0)  returns 0x00000001 (0000ms, 0447ms total)
T3FC0 000:716 JLINK_WriteReg(R0, 0x08001000)  returns 0x00 (0000ms, 0447ms total)
T3FC0 000:716 JLINK_WriteReg(R1, 0x00000400)  returns 0x00 (0000ms, 0447ms total)
T3FC0 000:716 JLINK_WriteReg(R2, 0x000000FF)  returns 0x00 (0000ms, 0447ms total)
T3FC0 000:716 JLINK_WriteReg(R3, 0x00000000)  returns 0x00 (0000ms, 0447ms total)
T3FC0 000:716 JLINK_WriteReg(R4, 0x00000000)  returns 0x00 (0000ms, 0447ms total)
T3FC0 000:716 JLINK_WriteReg(R5, 0x00000000)  returns 0x00 (0000ms, 0447ms total)
T3FC0 000:716 JLINK_WriteReg(R6, 0x00000000)  returns 0x00 (0000ms, 0447ms total)
T3FC0 000:716 JLINK_WriteReg(R7, 0x00000000)  returns 0x00 (0000ms, 0447ms total)
T3FC0 000:716 JLINK_WriteReg(R8, 0x00000000)  returns 0x00 (0000ms, 0447ms total)
T3FC0 000:716 JLINK_WriteReg(R9, 0x2000016C)  returns 0x00 (0000ms, 0447ms total)
T3FC0 000:716 JLINK_WriteReg(R10, 0x00000000)  returns 0x00 (0000ms, 0447ms total)
T3FC0 000:716 JLINK_WriteReg(R11, 0x00000000)  returns 0x00 (0000ms, 0447ms total)
T3FC0 000:716 JLINK_WriteReg(R12, 0x00000000)  returns 0x00 (0000ms, 0447ms total)
T3FC0 000:716 JLINK_WriteReg(R13 (SP), 0x20001000)  returns 0x00 (0000ms, 0447ms total)
T3FC0 000:716 JLINK_WriteReg(R14, 0x20000001)  returns 0x00 (0000ms, 0447ms total)
T3FC0 000:716 JLINK_WriteReg(R15 (PC), 0x200000B8)  returns 0x00 (0000ms, 0447ms total)
T3FC0 000:716 JLINK_WriteReg(XPSR, 0x01000000)  returns 0x00 (0000ms, 0447ms total)
T3FC0 000:716 JLINK_WriteReg(MSP, 0x20001000)  returns 0x00 (0000ms, 0447ms total)
T3FC0 000:716 JLINK_WriteReg(PSP, 0x20001000)  returns 0x00 (0000ms, 0447ms total)
T3FC0 000:716 JLINK_WriteReg(CFBP, 0x00000000)  returns 0x00 (0000ms, 0447ms total)
T3FC0 000:716 JLINK_SetBPEx(Addr = 0x20000000, Type = 0xFFFFFFF2)  returns 0x00000009 (0000ms, 0447ms total)
T3FC0 000:716 JLINK_Go() -- CPU_ReadMem(4 bytes @ 0xE0001000) -- CPU_WriteMem(4 bytes @ 0xE0001000) (0003ms, 0450ms total)
T3FC0 000:719 JLINK_IsHalted()  returns FALSE (0000ms, 0450ms total)
T3FC0 000:732 JLINK_IsHalted()  returns FALSE (0000ms, 0450ms total)
T3FC0 000:733 JLINK_IsHalted()  returns FALSE (0000ms, 0450ms total)
T3FC0 000:735 JLINK_IsHalted()  returns FALSE (0000ms, 0450ms total)
T3FC0 000:736 JLINK_IsHalted()  returns FALSE (0000ms, 0450ms total)
T3FC0 000:738 JLINK_IsHalted()  returns FALSE (0000ms, 0450ms total)
T3FC0 000:739 JLINK_IsHalted()  returns FALSE (0000ms, 0450ms total)
T3FC0 000:741 JLINK_IsHalted() -- CPU_ReadMem(2 bytes @ 0x20000000)  returns TRUE (0005ms, 0455ms total)
T3FC0 000:746 JLINK_ReadReg(R15 (PC))  returns 0x20000000 (0000ms, 0450ms total)
T3FC0 000:746 JLINK_ClrBPEx(BPHandle = 0x00000009)  returns 0x00 (0000ms, 0450ms total)
T3FC0 000:746 JLINK_ReadReg(R0)  returns 0x00000000 (0000ms, 0450ms total)
T3FC0 000:746 JLINK_WriteReg(R0, 0x08001400)  returns 0x00 (0000ms, 0450ms total)
T3FC0 000:746 JLINK_WriteReg(R1, 0x00000400)  returns 0x00 (0000ms, 0450ms total)
T3FC0 000:746 JLINK_WriteReg(R2, 0x000000FF)  returns 0x00 (0000ms, 0450ms total)
T3FC0 000:746 JLINK_WriteReg(R3, 0x00000000)  returns 0x00 (0000ms, 0450ms total)
T3FC0 000:746 JLINK_WriteReg(R4, 0x00000000)  returns 0x00 (0000ms, 0450ms total)
T3FC0 000:746 JLINK_WriteReg(R5, 0x00000000)  returns 0x00 (0000ms, 0450ms total)
T3FC0 000:746 JLINK_WriteReg(R6, 0x00000000)  returns 0x00 (0000ms, 0450ms total)
T3FC0 000:746 JLINK_WriteReg(R7, 0x00000000)  returns 0x00 (0000ms, 0450ms total)
T3FC0 000:746 JLINK_WriteReg(R8, 0x00000000)  returns 0x00 (0000ms, 0450ms total)
T3FC0 000:746 JLINK_WriteReg(R9, 0x2000016C)  returns 0x00 (0000ms, 0450ms total)
T3FC0 000:746 JLINK_WriteReg(R10, 0x00000000)  returns 0x00 (0000ms, 0450ms total)
T3FC0 000:746 JLINK_WriteReg(R11, 0x00000000)  returns 0x00 (0000ms, 0450ms total)
T3FC0 000:746 JLINK_WriteReg(R12, 0x00000000)  returns 0x00 (0001ms, 0451ms total)
T3FC0 000:747 JLINK_WriteReg(R13 (SP), 0x20001000)  returns 0x00 (0000ms, 0451ms total)
T3FC0 000:747 JLINK_WriteReg(R14, 0x20000001)  returns 0x00 (0000ms, 0451ms total)
T3FC0 000:747 JLINK_WriteReg(R15 (PC), 0x20000020)  returns 0x00 (0000ms, 0451ms total)
T3FC0 000:747 JLINK_WriteReg(XPSR, 0x01000000)  returns 0x00 (0000ms, 0451ms total)
T3FC0 000:747 JLINK_WriteReg(MSP, 0x20001000)  returns 0x00 (0000ms, 0451ms total)
T3FC0 000:747 JLINK_WriteReg(PSP, 0x20001000)  returns 0x00 (0000ms, 0451ms total)
T3FC0 000:747 JLINK_WriteReg(CFBP, 0x00000000)  returns 0x00 (0000ms, 0451ms total)
T3FC0 000:747 JLINK_SetBPEx(Addr = 0x20000000, Type = 0xFFFFFFF2)  returns 0x0000000A (0000ms, 0451ms total)
T3FC0 000:747 JLINK_Go() -- CPU_ReadMem(4 bytes @ 0xE0001000) -- CPU_WriteMem(4 bytes @ 0xE0001000) (0003ms, 0454ms total)
T3FC0 000:750 JLINK_IsHalted()  returns FALSE (0000ms, 0454ms total)
T3FC0 000:751 JLINK_IsHalted() -- CPU_ReadMem(2 bytes @ 0x20000000)  returns TRUE (0005ms, 0459ms total)
T3FC0 000:756 JLINK_ReadReg(R15 (PC))  returns 0x20000000 (0000ms, 0454ms total)
T3FC0 000:756 JLINK_ClrBPEx(BPHandle = 0x0000000A)  returns 0x00 (0000ms, 0454ms total)
T3FC0 000:756 JLINK_ReadReg(R0)  returns 0x00000000 (0000ms, 0454ms total)
T3FC0 000:757 JLINK_WriteReg(R0, 0x08001800)  returns 0x00 (0000ms, 0454ms total)
T3FC0 000:757 JLINK_WriteReg(R1, 0x00000400)  returns 0x00 (0000ms, 0454ms total)
T3FC0 000:757 JLINK_WriteReg(R2, 0x000000FF)  returns 0x00 (0000ms, 0454ms total)
T3FC0 000:757 JLINK_WriteReg(R3, 0x00000000)  returns 0x00 (0000ms, 0454ms total)
T3FC0 000:757 JLINK_WriteReg(R4, 0x00000000)  returns 0x00 (0000ms, 0454ms total)
T3FC0 000:757 JLINK_WriteReg(R5, 0x00000000)  returns 0x00 (0000ms, 0454ms total)
T3FC0 000:757 JLINK_WriteReg(R6, 0x00000000)  returns 0x00 (0000ms, 0454ms total)
T3FC0 000:757 JLINK_WriteReg(R7, 0x00000000)  returns 0x00 (0000ms, 0454ms total)
T3FC0 000:757 JLINK_WriteReg(R8, 0x00000000)  returns 0x00 (0000ms, 0454ms total)
T3FC0 000:757 JLINK_WriteReg(R9, 0x2000016C)  returns 0x00 (0000ms, 0454ms total)
T3FC0 000:757 JLINK_WriteReg(R10, 0x00000000)  returns 0x00 (0000ms, 0454ms total)
T3FC0 000:757 JLINK_WriteReg(R11, 0x00000000)  returns 0x00 (0000ms, 0454ms total)
T3FC0 000:757 JLINK_WriteReg(R12, 0x00000000)  returns 0x00 (0000ms, 0454ms total)
T3FC0 000:757 JLINK_WriteReg(R13 (SP), 0x20001000)  returns 0x00 (0000ms, 0454ms total)
T3FC0 000:757 JLINK_WriteReg(R14, 0x20000001)  returns 0x00 (0000ms, 0454ms total)
T3FC0 000:757 JLINK_WriteReg(R15 (PC), 0x20000020)  returns 0x00 (0000ms, 0454ms total)
T3FC0 000:757 JLINK_WriteReg(XPSR, 0x01000000)  returns 0x00 (0000ms, 0454ms total)
T3FC0 000:757 JLINK_WriteReg(MSP, 0x20001000)  returns 0x00 (0000ms, 0454ms total)
T3FC0 000:757 JLINK_WriteReg(PSP, 0x20001000)  returns 0x00 (0000ms, 0454ms total)
T3FC0 000:757 JLINK_WriteReg(CFBP, 0x00000000)  returns 0x00 (0000ms, 0454ms total)
T3FC0 000:757 JLINK_SetBPEx(Addr = 0x20000000, Type = 0xFFFFFFF2)  returns 0x0000000B (0000ms, 0454ms total)
T3FC0 000:757 JLINK_Go() -- CPU_ReadMem(4 bytes @ 0xE0001000) -- CPU_WriteMem(4 bytes @ 0xE0001000) (0002ms, 0456ms total)
T3FC0 000:759 JLINK_IsHalted() -- CPU_ReadMem(2 bytes @ 0x20000000)  returns TRUE (0005ms, 0461ms total)
T3FC0 000:764 JLINK_ReadReg(R15 (PC))  returns 0x20000000 (0000ms, 0456ms total)
T3FC0 000:764 JLINK_ClrBPEx(BPHandle = 0x0000000B)  returns 0x00 (0000ms, 0456ms total)
T3FC0 000:764 JLINK_ReadReg(R0)  returns 0x00000001 (0000ms, 0456ms total)
T3FC0 000:764 JLINK_WriteReg(R0, 0x08001800)  returns 0x00 (0000ms, 0456ms total)
T3FC0 000:764 JLINK_WriteReg(R1, 0x00000400)  returns 0x00 (0000ms, 0456ms total)
T3FC0 000:764 JLINK_WriteReg(R2, 0x000000FF)  returns 0x00 (0000ms, 0456ms total)
T3FC0 000:764 JLINK_WriteReg(R3, 0x00000000)  returns 0x00 (0000ms, 0456ms total)
T3FC0 000:764 JLINK_WriteReg(R4, 0x00000000)  returns 0x00 (0000ms, 0456ms total)
T3FC0 000:764 JLINK_WriteReg(R5, 0x00000000)  returns 0x00 (0000ms, 0456ms total)
T3FC0 000:764 JLINK_WriteReg(R6, 0x00000000)  returns 0x00 (0000ms, 0456ms total)
T3FC0 000:764 JLINK_WriteReg(R7, 0x00000000)  returns 0x00 (0000ms, 0456ms total)
T3FC0 000:764 JLINK_WriteReg(R8, 0x00000000)  returns 0x00 (0000ms, 0456ms total)
T3FC0 000:764 JLINK_WriteReg(R9, 0x2000016C)  returns 0x00 (0000ms, 0456ms total)
T3FC0 000:764 JLINK_WriteReg(R10, 0x00000000)  returns 0x00 (0000ms, 0456ms total)
T3FC0 000:764 JLINK_WriteReg(R11, 0x00000000)  returns 0x00 (0000ms, 0456ms total)
T3FC0 000:764 JLINK_WriteReg(R12, 0x00000000)  returns 0x00 (0000ms, 0456ms total)
T3FC0 000:764 JLINK_WriteReg(R13 (SP), 0x20001000)  returns 0x00 (0000ms, 0456ms total)
T3FC0 000:764 JLINK_WriteReg(R14, 0x20000001)  returns 0x00 (0000ms, 0456ms total)
T3FC0 000:764 JLINK_WriteReg(R15 (PC), 0x200000B8)  returns 0x00 (0000ms, 0456ms total)
T3FC0 000:764 JLINK_WriteReg(XPSR, 0x01000000)  returns 0x00 (0000ms, 0456ms total)
T3FC0 000:764 JLINK_WriteReg(MSP, 0x20001000)  returns 0x00 (0000ms, 0456ms total)
T3FC0 000:764 JLINK_WriteReg(PSP, 0x20001000)  returns 0x00 (0000ms, 0456ms total)
T3FC0 000:764 JLINK_WriteReg(CFBP, 0x00000000)  returns 0x00 (0000ms, 0456ms total)
T3FC0 000:764 JLINK_SetBPEx(Addr = 0x20000000, Type = 0xFFFFFFF2)  returns 0x0000000C (0000ms, 0456ms total)
T3FC0 000:764 JLINK_Go() -- CPU_ReadMem(4 bytes @ 0xE0001000) -- CPU_WriteMem(4 bytes @ 0xE0001000) (0003ms, 0459ms total)
T3FC0 000:767 JLINK_IsHalted()  returns FALSE (0000ms, 0459ms total)
T3FC0 000:769 JLINK_IsHalted()  returns FALSE (0000ms, 0459ms total)
T3FC0 000:771 JLINK_IsHalted()  returns FALSE (0000ms, 0459ms total)
T3FC0 000:772 JLINK_IsHalted()  returns FALSE (0000ms, 0459ms total)
T3FC0 000:774 JLINK_IsHalted()  returns FALSE (0000ms, 0459ms total)
T3FC0 000:776 JLINK_IsHalted()  returns FALSE (0000ms, 0459ms total)
T3FC0 000:777 JLINK_IsHalted()  returns FALSE (0000ms, 0459ms total)
T3FC0 000:779 JLINK_IsHalted()  returns FALSE (0000ms, 0459ms total)
T3FC0 000:780 JLINK_IsHalted()  returns FALSE (0000ms, 0459ms total)
T3FC0 000:782 JLINK_IsHalted()  returns FALSE (0000ms, 0459ms total)
T3FC0 000:783 JLINK_IsHalted()  returns FALSE (0000ms, 0459ms total)
T3FC0 000:785 JLINK_IsHalted()  returns FALSE (0001ms, 0460ms total)
T3FC0 000:787 JLINK_IsHalted()  returns FALSE (0000ms, 0459ms total)
T3FC0 000:792 JLINK_IsHalted() -- CPU_ReadMem(2 bytes @ 0x20000000)  returns TRUE (0004ms, 0463ms total)
T3FC0 000:796 JLINK_ReadReg(R15 (PC))  returns 0x20000000 (0000ms, 0459ms total)
T3FC0 000:796 JLINK_ClrBPEx(BPHandle = 0x0000000C)  returns 0x00 (0000ms, 0459ms total)
T3FC0 000:796 JLINK_ReadReg(R0)  returns 0x00000000 (0000ms, 0459ms total)
T3FC0 000:797 JLINK_WriteReg(R0, 0x08001C00)  returns 0x00 (0000ms, 0459ms total)
T3FC0 000:797 JLINK_WriteReg(R1, 0x00000400)  returns 0x00 (0000ms, 0459ms total)
T3FC0 000:797 JLINK_WriteReg(R2, 0x000000FF)  returns 0x00 (0000ms, 0459ms total)
T3FC0 000:797 JLINK_WriteReg(R3, 0x00000000)  returns 0x00 (0000ms, 0459ms total)
T3FC0 000:797 JLINK_WriteReg(R4, 0x00000000)  returns 0x00 (0000ms, 0459ms total)
T3FC0 000:797 JLINK_WriteReg(R5, 0x00000000)  returns 0x00 (0000ms, 0459ms total)
T3FC0 000:797 JLINK_WriteReg(R6, 0x00000000)  returns 0x00 (0000ms, 0459ms total)
T3FC0 000:797 JLINK_WriteReg(R7, 0x00000000)  returns 0x00 (0000ms, 0459ms total)
T3FC0 000:797 JLINK_WriteReg(R8, 0x00000000)  returns 0x00 (0000ms, 0459ms total)
T3FC0 000:797 JLINK_WriteReg(R9, 0x2000016C)  returns 0x00 (0000ms, 0459ms total)
T3FC0 000:797 JLINK_WriteReg(R10, 0x00000000)  returns 0x00 (0000ms, 0459ms total)
T3FC0 000:797 JLINK_WriteReg(R11, 0x00000000)  returns 0x00 (0000ms, 0459ms total)
T3FC0 000:797 JLINK_WriteReg(R12, 0x00000000)  returns 0x00 (0000ms, 0459ms total)
T3FC0 000:797 JLINK_WriteReg(R13 (SP), 0x20001000)  returns 0x00 (0000ms, 0459ms total)
T3FC0 000:797 JLINK_WriteReg(R14, 0x20000001)  returns 0x00 (0000ms, 0459ms total)
T3FC0 000:797 JLINK_WriteReg(R15 (PC), 0x20000020)  returns 0x00 (0000ms, 0459ms total)
T3FC0 000:797 JLINK_WriteReg(XPSR, 0x01000000)  returns 0x00 (0000ms, 0459ms total)
T3FC0 000:797 JLINK_WriteReg(MSP, 0x20001000)  returns 0x00 (0000ms, 0459ms total)
T3FC0 000:797 JLINK_WriteReg(PSP, 0x20001000)  returns 0x00 (0000ms, 0459ms total)
T3FC0 000:797 JLINK_WriteReg(CFBP, 0x00000000)  returns 0x00 (0000ms, 0459ms total)
T3FC0 000:797 JLINK_SetBPEx(Addr = 0x20000000, Type = 0xFFFFFFF2)  returns 0x0000000D (0000ms, 0459ms total)
T3FC0 000:797 JLINK_Go() -- CPU_ReadMem(4 bytes @ 0xE0001000) -- CPU_WriteMem(4 bytes @ 0xE0001000) (0003ms, 0462ms total)
T3FC0 000:800 JLINK_IsHalted()  returns FALSE (0000ms, 0462ms total)
T3FC0 000:802 JLINK_IsHalted() -- CPU_ReadMem(2 bytes @ 0x20000000)  returns TRUE (0004ms, 0466ms total)
T3FC0 000:806 JLINK_ReadReg(R15 (PC))  returns 0x20000000 (0000ms, 0462ms total)
T3FC0 000:806 JLINK_ClrBPEx(BPHandle = 0x0000000D)  returns 0x00 (0000ms, 0462ms total)
T3FC0 000:806 JLINK_ReadReg(R0)  returns 0x00000000 (0000ms, 0462ms total)
T3FC0 000:807 JLINK_WriteReg(R0, 0x08002000)  returns 0x00 (0000ms, 0462ms total)
T3FC0 000:807 JLINK_WriteReg(R1, 0x00000400)  returns 0x00 (0000ms, 0462ms total)
T3FC0 000:807 JLINK_WriteReg(R2, 0x000000FF)  returns 0x00 (0000ms, 0462ms total)
T3FC0 000:807 JLINK_WriteReg(R3, 0x00000000)  returns 0x00 (0000ms, 0462ms total)
T3FC0 000:807 JLINK_WriteReg(R4, 0x00000000)  returns 0x00 (0000ms, 0462ms total)
T3FC0 000:807 JLINK_WriteReg(R5, 0x00000000)  returns 0x00 (0000ms, 0462ms total)
T3FC0 000:807 JLINK_WriteReg(R6, 0x00000000)  returns 0x00 (0000ms, 0462ms total)
T3FC0 000:807 JLINK_WriteReg(R7, 0x00000000)  returns 0x00 (0000ms, 0462ms total)
T3FC0 000:807 JLINK_WriteReg(R8, 0x00000000)  returns 0x00 (0000ms, 0462ms total)
T3FC0 000:807 JLINK_WriteReg(R9, 0x2000016C)  returns 0x00 (0000ms, 0462ms total)
T3FC0 000:807 JLINK_WriteReg(R10, 0x00000000)  returns 0x00 (0000ms, 0462ms total)
T3FC0 000:807 JLINK_WriteReg(R11, 0x00000000)  returns 0x00 (0000ms, 0462ms total)
T3FC0 000:807 JLINK_WriteReg(R12, 0x00000000)  returns 0x00 (0000ms, 0462ms total)
T3FC0 000:807 JLINK_WriteReg(R13 (SP), 0x20001000)  returns 0x00 (0000ms, 0462ms total)
T3FC0 000:807 JLINK_WriteReg(R14, 0x20000001)  returns 0x00 (0000ms, 0462ms total)
T3FC0 000:807 JLINK_WriteReg(R15 (PC), 0x20000020)  returns 0x00 (0000ms, 0462ms total)
T3FC0 000:807 JLINK_WriteReg(XPSR, 0x01000000)  returns 0x00 (0000ms, 0462ms total)
T3FC0 000:807 JLINK_WriteReg(MSP, 0x20001000)  returns 0x00 (0000ms, 0462ms total)
T3FC0 000:807 JLINK_WriteReg(PSP, 0x20001000)  returns 0x00 (0000ms, 0462ms total)
T3FC0 000:807 JLINK_WriteReg(CFBP, 0x00000000)  returns 0x00 (0000ms, 0462ms total)
T3FC0 000:807 JLINK_SetBPEx(Addr = 0x20000000, Type = 0xFFFFFFF2)  returns 0x0000000E (0000ms, 0462ms total)
T3FC0 000:807 JLINK_Go() -- CPU_ReadMem(4 bytes @ 0xE0001000) -- CPU_WriteMem(4 bytes @ 0xE0001000) (0002ms, 0464ms total)
T3FC0 000:809 JLINK_IsHalted() -- CPU_ReadMem(2 bytes @ 0x20000000)  returns TRUE (0005ms, 0469ms total)
T3FC0 000:814 JLINK_ReadReg(R15 (PC))  returns 0x20000000 (0000ms, 0464ms total)
T3FC0 000:814 JLINK_ClrBPEx(BPHandle = 0x0000000E)  returns 0x00 (0000ms, 0464ms total)
T3FC0 000:814 JLINK_ReadReg(R0)  returns 0x00000001 (0000ms, 0464ms total)
T3FC0 000:814 JLINK_WriteReg(R0, 0x08002000)  returns 0x00 (0000ms, 0464ms total)
T3FC0 000:814 JLINK_WriteReg(R1, 0x00000400)  returns 0x00 (0000ms, 0464ms total)
T3FC0 000:814 JLINK_WriteReg(R2, 0x000000FF)  returns 0x00 (0000ms, 0464ms total)
T3FC0 000:814 JLINK_WriteReg(R3, 0x00000000)  returns 0x00 (0000ms, 0464ms total)
T3FC0 000:814 JLINK_WriteReg(R4, 0x00000000)  returns 0x00 (0000ms, 0464ms total)
T3FC0 000:814 JLINK_WriteReg(R5, 0x00000000)  returns 0x00 (0000ms, 0464ms total)
T3FC0 000:814 JLINK_WriteReg(R6, 0x00000000)  returns 0x00 (0000ms, 0464ms total)
T3FC0 000:814 JLINK_WriteReg(R7, 0x00000000)  returns 0x00 (0000ms, 0464ms total)
T3FC0 000:814 JLINK_WriteReg(R8, 0x00000000)  returns 0x00 (0000ms, 0464ms total)
T3FC0 000:814 JLINK_WriteReg(R9, 0x2000016C)  returns 0x00 (0000ms, 0464ms total)
T3FC0 000:814 JLINK_WriteReg(R10, 0x00000000)  returns 0x00 (0000ms, 0464ms total)
T3FC0 000:814 JLINK_WriteReg(R11, 0x00000000)  returns 0x00 (0000ms, 0464ms total)
T3FC0 000:814 JLINK_WriteReg(R12, 0x00000000)  returns 0x00 (0000ms, 0464ms total)
T3FC0 000:814 JLINK_WriteReg(R13 (SP), 0x20001000)  returns 0x00 (0000ms, 0464ms total)
T3FC0 000:814 JLINK_WriteReg(R14, 0x20000001)  returns 0x00 (0000ms, 0464ms total)
T3FC0 000:814 JLINK_WriteReg(R15 (PC), 0x200000B8)  returns 0x00 (0000ms, 0464ms total)
T3FC0 000:814 JLINK_WriteReg(XPSR, 0x01000000)  returns 0x00 (0000ms, 0464ms total)
T3FC0 000:814 JLINK_WriteReg(MSP, 0x20001000)  returns 0x00 (0000ms, 0464ms total)
T3FC0 000:814 JLINK_WriteReg(PSP, 0x20001000)  returns 0x00 (0000ms, 0464ms total)
T3FC0 000:814 JLINK_WriteReg(CFBP, 0x00000000)  returns 0x00 (0000ms, 0464ms total)
T3FC0 000:814 JLINK_SetBPEx(Addr = 0x20000000, Type = 0xFFFFFFF2)  returns 0x0000000F (0000ms, 0464ms total)
T3FC0 000:814 JLINK_Go() -- CPU_ReadMem(4 bytes @ 0xE0001000) -- CPU_WriteMem(4 bytes @ 0xE0001000) (0003ms, 0467ms total)
T3FC0 000:817 JLINK_IsHalted()  returns FALSE (0000ms, 0467ms total)
T3FC0 000:825 JLINK_IsHalted()  returns FALSE (0000ms, 0467ms total)
T3FC0 000:827 JLINK_IsHalted()  returns FALSE (0000ms, 0467ms total)
T3FC0 000:828 JLINK_IsHalted()  returns FALSE (0000ms, 0467ms total)
T3FC0 000:830 JLINK_IsHalted()  returns FALSE (0000ms, 0467ms total)
T3FC0 000:840 JLINK_IsHalted() -- CPU_ReadMem(2 bytes @ 0x20000000)  returns TRUE (0004ms, 0471ms total)
T3FC0 000:844 JLINK_ReadReg(R15 (PC))  returns 0x20000000 (0000ms, 0467ms total)
T3FC0 000:844 JLINK_ClrBPEx(BPHandle = 0x0000000F)  returns 0x00 (0000ms, 0467ms total)
T3FC0 000:844 JLINK_ReadReg(R0)  returns 0x00000000 (0000ms, 0467ms total)
T3FC0 000:845 JLINK_WriteReg(R0, 0x08002400)  returns 0x00 (0000ms, 0467ms total)
T3FC0 000:845 JLINK_WriteReg(R1, 0x00000400)  returns 0x00 (0000ms, 0467ms total)
T3FC0 000:845 JLINK_WriteReg(R2, 0x000000FF)  returns 0x00 (0000ms, 0467ms total)
T3FC0 000:845 JLINK_WriteReg(R3, 0x00000000)  returns 0x00 (0000ms, 0467ms total)
T3FC0 000:845 JLINK_WriteReg(R4, 0x00000000)  returns 0x00 (0000ms, 0467ms total)
T3FC0 000:845 JLINK_WriteReg(R5, 0x00000000)  returns 0x00 (0000ms, 0467ms total)
T3FC0 000:845 JLINK_WriteReg(R6, 0x00000000)  returns 0x00 (0000ms, 0467ms total)
T3FC0 000:845 JLINK_WriteReg(R7, 0x00000000)  returns 0x00 (0000ms, 0467ms total)
T3FC0 000:845 JLINK_WriteReg(R8, 0x00000000)  returns 0x00 (0000ms, 0467ms total)
T3FC0 000:845 JLINK_WriteReg(R9, 0x2000016C)  returns 0x00 (0000ms, 0467ms total)
T3FC0 000:845 JLINK_WriteReg(R10, 0x00000000)  returns 0x00 (0000ms, 0467ms total)
T3FC0 000:845 JLINK_WriteReg(R11, 0x00000000)  returns 0x00 (0000ms, 0467ms total)
T3FC0 000:845 JLINK_WriteReg(R12, 0x00000000)  returns 0x00 (0000ms, 0467ms total)
T3FC0 000:845 JLINK_WriteReg(R13 (SP), 0x20001000)  returns 0x00 (0000ms, 0467ms total)
T3FC0 000:845 JLINK_WriteReg(R14, 0x20000001)  returns 0x00 (0000ms, 0467ms total)
T3FC0 000:845 JLINK_WriteReg(R15 (PC), 0x20000020)  returns 0x00 (0000ms, 0467ms total)
T3FC0 000:845 JLINK_WriteReg(XPSR, 0x01000000)  returns 0x00 (0000ms, 0467ms total)
T3FC0 000:845 JLINK_WriteReg(MSP, 0x20001000)  returns 0x00 (0000ms, 0467ms total)
T3FC0 000:845 JLINK_WriteReg(PSP, 0x20001000)  returns 0x00 (0000ms, 0467ms total)
T3FC0 000:845 JLINK_WriteReg(CFBP, 0x00000000)  returns 0x00 (0000ms, 0467ms total)
T3FC0 000:845 JLINK_SetBPEx(Addr = 0x20000000, Type = 0xFFFFFFF2)  returns 0x00000010 (0000ms, 0467ms total)
T3FC0 000:845 JLINK_Go() -- CPU_ReadMem(4 bytes @ 0xE0001000) -- CPU_WriteMem(4 bytes @ 0xE0001000) (0003ms, 0470ms total)
T3FC0 000:848 JLINK_IsHalted()  returns FALSE (0000ms, 0470ms total)
T3FC0 000:850 JLINK_IsHalted() -- CPU_ReadMem(2 bytes @ 0x20000000)  returns TRUE (0004ms, 0474ms total)
T3FC0 000:854 JLINK_ReadReg(R15 (PC))  returns 0x20000000 (0000ms, 0470ms total)
T3FC0 000:854 JLINK_ClrBPEx(BPHandle = 0x00000010)  returns 0x00 (0000ms, 0470ms total)
T3FC0 000:854 JLINK_ReadReg(R0)  returns 0x00000000 (0000ms, 0470ms total)
T3FC0 000:854 JLINK_WriteReg(R0, 0x00000001)  returns 0x00 (0000ms, 0470ms total)
T3FC0 000:854 JLINK_WriteReg(R1, 0x00000400)  returns 0x00 (0000ms, 0470ms total)
T3FC0 000:854 JLINK_WriteReg(R2, 0x000000FF)  returns 0x00 (0000ms, 0470ms total)
T3FC0 000:854 JLINK_WriteReg(R3, 0x00000000)  returns 0x00 (0000ms, 0470ms total)
T3FC0 000:854 JLINK_WriteReg(R4, 0x00000000)  returns 0x00 (0000ms, 0470ms total)
T3FC0 000:854 JLINK_WriteReg(R5, 0x00000000)  returns 0x00 (0000ms, 0470ms total)
T3FC0 000:854 JLINK_WriteReg(R6, 0x00000000)  returns 0x00 (0000ms, 0470ms total)
T3FC0 000:854 JLINK_WriteReg(R7, 0x00000000)  returns 0x00 (0001ms, 0471ms total)
T3FC0 000:855 JLINK_WriteReg(R8, 0x00000000)  returns 0x00 (0000ms, 0471ms total)
T3FC0 000:855 JLINK_WriteReg(R9, 0x2000016C)  returns 0x00 (0000ms, 0471ms total)
T3FC0 000:855 JLINK_WriteReg(R10, 0x00000000)  returns 0x00 (0000ms, 0471ms total)
T3FC0 000:855 JLINK_WriteReg(R11, 0x00000000)  returns 0x00 (0000ms, 0471ms total)
T3FC0 000:855 JLINK_WriteReg(R12, 0x00000000)  returns 0x00 (0000ms, 0471ms total)
T3FC0 000:855 JLINK_WriteReg(R13 (SP), 0x20001000)  returns 0x00 (0000ms, 0471ms total)
T3FC0 000:855 JLINK_WriteReg(R14, 0x20000001)  returns 0x00 (0000ms, 0471ms total)
T3FC0 000:855 JLINK_WriteReg(R15 (PC), 0x20000066)  returns 0x00 (0000ms, 0471ms total)
T3FC0 000:855 JLINK_WriteReg(XPSR, 0x01000000)  returns 0x00 (0000ms, 0471ms total)
T3FC0 000:855 JLINK_WriteReg(MSP, 0x20001000)  returns 0x00 (0000ms, 0471ms total)
T3FC0 000:855 JLINK_WriteReg(PSP, 0x20001000)  returns 0x00 (0000ms, 0471ms total)
T3FC0 000:855 JLINK_WriteReg(CFBP, 0x00000000)  returns 0x00 (0000ms, 0471ms total)
T3FC0 000:855 JLINK_SetBPEx(Addr = 0x20000000, Type = 0xFFFFFFF2)  returns 0x00000011 (0000ms, 0471ms total)
T3FC0 000:855 JLINK_Go() -- CPU_ReadMem(4 bytes @ 0xE0001000) -- CPU_WriteMem(4 bytes @ 0xE0001000) (0002ms, 0473ms total)
T3FC0 000:857 JLINK_IsHalted() -- CPU_ReadMem(2 bytes @ 0x20000000)  returns TRUE (0005ms, 0478ms total)
T3FC0 000:862 JLINK_ReadReg(R15 (PC))  returns 0x20000000 (0000ms, 0473ms total)
T3FC0 000:862 JLINK_ClrBPEx(BPHandle = 0x00000011)  returns 0x00 (0000ms, 0473ms total)
T3FC0 000:862 JLINK_ReadReg(R0)  returns 0x00000000 (0000ms, 0473ms total)
